!TGA2976-SM fixtured S-Parameters data
!Reference plane is at DUT
!
!Vd= 40 V, Id = 360 mA, Vg1 = -2.4 V Typical, Vg2 = +17.7V typical, Tbase = 25C
# GHz   S   DB   R   50
!      	Freq   	dB S11 	Deg S11	dB S21 	Deg S21	dB S12 	Deg S12	dB S22 	Deg S22	
0.025	-5.412	-15.195	23.564	157.137	-35.911	76.647	-3.498	-56.859
0.05	-5.858	-25.95	21.335	155.706	-37.587	52.293	-6.93	-91.643
0.075	-6.215	-36.147	20.111	160.406	-36.518	25.673	-9.896	-114.925
0.1	-6.459	-45.543	19.833	164.373	-36.371	17.097	-11.633	-131.751
0.125	-6.715	-54.539	19.93	166.143	-34.45	29.337	-13.163	-145.45
0.15	-6.938	-63.55	20.094	166.43	-34.08	33.783	-14.406	-157.391
0.175	-7.219	-71.514	20.345	166.056	-34.108	25.217	-15.353	-164.877
0.2	-7.441	-78.742	20.588	164.631	-32.804	13.623	-16.092	-173.797
0.225	-7.56	-86.15	20.764	162.858	-33.018	8.233	-17.069	179.971
0.25	-7.906	-93.098	20.929	160.629	-33.399	6.961	-17.699	173.359
0.275	-8.206	-98.641	21.035	158.369	-32.219	8.849	-18.566	167.401
0.3	-8.386	-104.145	21.211	155.737	-33.256	5.949	-19.364	163.56
0.325	-8.489	-109.924	21.32	153.197	-33.066	-6.929	-20.098	159.505
0.35	-8.695	-115.002	21.397	150.841	-32.002	-7.083	-20.771	154.486
0.375	-8.894	-119.407	21.451	148.016	-32.164	-14.608	-21.129	150.043
0.4	-8.946	-123.971	21.509	145.324	-31.507	-6.536	-22.057	148.263
0.425	-9.017	-127.998	21.589	142.668	-31.832	-25.716	-22.648	145.463
0.45	-9.276	-131.649	21.638	140.148	-32.067	-21.882	-23.378	136.281
0.475	-9.327	-135.42	21.682	137.499	-31.68	-25.572	-24.253	131.268
0.5	-9.408	-138.189	21.709	134.879	-31.317	-21.489	-25.404	131.103
0.525	-9.586	-141.964	21.719	132.062	-30.899	-23.826	-25.801	121.417
0.55	-9.74	-144.281	21.761	129.439	-31.198	-27.994	-27.645	116.272
0.575	-9.788	-148.502	21.785	126.528	-31.08	-29.157	-28.222	108.811
0.6	-9.815	-151.192	21.788	123.813	-31.448	-32.518	-28.84	96.627
0.625	-9.929	-154.294	21.816	121.422	-31.469	-37.113	-29.461	86.464
0.65	-10	-156.114	21.82	118.684	-32.511	-38.985	-31.421	76.794
0.675	-10.086	-159.259	21.829	116.289	-31.441	-34.436	-30.657	60.489
0.7	-10.005	-162.133	21.834	113.482	-31.219	-44.174	-31.339	45.648
0.725	-10.134	-164.459	21.854	110.891	-31.153	-44.023	-30.926	29.624
0.75	-10.178	-167.097	21.864	108.164	-31.594	-52.638	-30.155	19.175
0.775	-10.33	-169.38	21.892	105.731	-31.871	-46.95	-28.242	7.718
0.8	-10.341	-172.261	21.868	102.964	-31.917	-54.181	-27.971	-1.585
0.825	-10.449	-174.645	21.866	100.442	-31.691	-54.615	-26.632	-9.61
0.85	-10.421	-177.035	21.869	97.72	-31.874	-57.206	-25.384	-15.83
0.875	-10.534	179.378	21.896	95.117	-31.74	-64.653	-24.724	-19.592
0.9	-10.626	177.689	21.874	92.55	-31.631	-60.173	-23.926	-23.481
0.925	-10.666	174.239	21.882	89.951	-31.012	-70.508	-23.254	-24.09
0.95	-10.695	172.112	21.892	87.272	-31.799	-65.293	-22.416	-29.158
0.975	-10.758	170.23	21.912	84.719	-31.801	-69.633	-21.532	-33.999
1	-10.951	164.328	21.909	82.389	-32.006	-75.288	-20.882	-25.745
1.025	-10.969	161.195	21.908	79.725	-31.78	-76.303	-20.431	-28.103
1.05	-10.96	158.72	21.922	77.074	-31.595	-74.686	-20.366	-30.789
1.075	-11.011	156.007	21.937	74.459	-32.482	-79.591	-19.626	-33.639
1.1	-11.034	152.475	21.917	71.895	-31.416	-82.035	-19.249	-34.745
1.125	-11.002	149.511	21.91	69.149	-31.771	-83.586	-18.903	-38.284
1.15	-11.055	146.514	21.899	66.51	-31.908	-88.821	-18.509	-40.578
1.175	-10.992	143.208	21.913	63.794	-31.746	-89.007	-18.154	-43.534
1.2	-11.054	140.272	21.898	61.179	-31.843	-92.384	-18.008	-45.644
1.225	-10.993	136.638	21.909	58.388	-32.366	-89.616	-17.741	-47.437
1.25	-11.066	133.55	21.901	55.815	-32.075	-95.291	-17.29	-49.908
1.275	-11.147	130.399	21.894	53.251	-32.598	-100.595	-17.065	-51.592
1.3	-11.116	126.529	21.865	50.578	-31.42	-99.34	-16.75	-53.46
1.325	-11.091	122.734	21.905	47.821	-32.168	-101.568	-16.552	-54.458
1.35	-11.1	118.785	21.897	45.181	-32.007	-104.05	-16.34	-54.712
1.375	-11.091	115.689	21.876	42.585	-32.459	-107.29	-16.192	-58.18
1.4	-11.152	111.268	21.891	39.7	-32.219	-107.958	-15.801	-59.237
1.425	-11.076	107.575	21.885	36.995	-32.319	-111.136	-15.626	-60.361
1.45	-11.09	103.185	21.857	34.214	-32.617	-112.369	-15.572	-62.103
1.475	-10.972	99.232	21.852	31.485	-32.262	-116.702	-15.218	-62.724
1.5	-10.91	95.192	21.867	28.714	-32.142	-115.779	-14.965	-64.666
1.525	-10.916	90.941	21.84	26.1	-32.885	-116.502	-14.895	-65.011
1.55	-10.947	86.299	21.818	23.183	-32.796	-120.052	-14.579	-66.301
1.575	-10.777	82.468	21.791	20.562	-32.95	-120.635	-14.51	-66.747
1.6	-10.735	78.215	21.791	17.536	-32.268	-124.044	-14.306	-68.802
1.625	-10.613	73.396	21.762	14.796	-32.959	-127.085	-14.103	-69.977
1.65	-10.517	69.272	21.769	12.041	-32.947	-130.263	-14.012	-71.181
1.675	-10.457	64.429	21.7	9.176	-32.427	-130.106	-13.713	-71.788
1.7	-10.278	60.718	21.701	6.45	-32.769	-136.69	-13.635	-73.419
1.725	-10.135	55.289	21.693	3.604	-33.289	-132.542	-13.42	-74.08
1.75	-9.879	51.606	21.66	0.752	-33.089	-132.425	-13.298	-75.198
1.775	-9.973	46.638	21.628	-2.143	-32.385	-141.795	-13.122	-75.189
1.8	-9.793	42.816	21.595	-5.019	-33.146	-148.539	-12.907	-77.16
1.825	-9.495	38.397	21.579	-7.915	-33.111	-139.201	-12.71	-77.57
1.85	-9.281	34.372	21.537	-10.551	-34.145	-144.027	-12.646	-78.404
1.875	-9.182	29.914	21.496	-13.236	-33.533	-148.517	-12.488	-79.82
1.9	-9.011	25.719	21.468	-16.337	-33.651	-155.136	-12.425	-81.438
1.925	-8.763	21.475	21.438	-19.077	-33.094	-154.083	-12.338	-81.581
1.95	-8.563	17.612	21.402	-21.831	-32.782	-159.501	-12.09	-82.335
1.975	-8.453	12.878	21.35	-24.857	-33.431	-159.901	-12.05	-82.838
2	-8.273	9.641	21.319	-27.564	-33.523	-156.518	-11.782	-84.382
2.025	-8.18	5.648	21.258	-30.466	-33.187	-165.733	-11.716	-85.596
2.05	-7.871	1.744	21.259	-33.206	-33.828	-162.782	-11.463	-86.494
2.075	-7.68	-1.888	21.206	-36.216	-34.254	-172.283	-11.47	-87.356
2.1	-7.587	-5.765	21.147	-38.916	-34.421	-169.082	-11.268	-88.379
2.125	-7.457	-9.075	21.094	-41.773	-34.235	-176.993	-11.183	-88.721
2.15	-7.286	-13.012	21.017	-44.585	-34.156	-174.872	-11.071	-90.517
2.175	-7.073	-16.393	21	-47.324	-33.196	-177.46	-11.03	-91.932
2.2	-6.979	-20.104	20.942	-50.259	-33.895	-177.915	-10.777	-92.761
2.225	-6.834	-23.717	20.918	-53.089	-33.949	-177.964	-10.635	-93.747
2.25	-6.647	-26.803	20.881	-55.997	-33.767	176.868	-10.626	-94.618
2.275	-6.556	-30.646	20.812	-58.879	-34.186	178.434	-10.534	-96.04
2.3	-6.388	-33.833	20.778	-61.497	-34.556	177.104	-10.46	-97.33
2.325	-6.315	-37.674	20.746	-64.429	-34.065	174.177	-10.297	-98.717
2.35	-6.211	-40.594	20.667	-67.219	-33.921	173.174	-10.263	-99.407
2.375	-6.132	-44.168	20.629	-70.113	-34.314	163.819	-10.128	-101.456
2.4	-5.99	-46.965	20.603	-72.933	-34.765	167.464	-10.104	-102.252
2.425	-5.958	-50.395	20.566	-75.67	-34.376	166.688	-10.03	-103.647
2.45	-5.848	-53.854	20.512	-78.515	-33.868	159.651	-10.019	-104.909
2.475	-5.811	-57.484	20.49	-81.443	-34.714	162	-9.902	-106.386
2.5	-5.77	-60.46	20.441	-84.374	-34.026	155.643	-9.867	-108.148
2.525	-5.743	-63.487	20.422	-87.193	-34.903	160.262	-9.79	-109.357
2.55	-5.69	-67.081	20.397	-90.222	-34.142	156.258	-9.78	-110.726
2.575	-5.671	-70.266	20.326	-92.899	-34.579	155.371	-9.727	-111.5
2.6	-5.628	-73.021	20.315	-95.709	-34.493	151.469	-9.668	-113.414
2.625	-5.66	-76.901	20.27	-98.691	-34.915	141.368	-9.666	-114.766
2.65	-5.665	-80.105	20.276	-101.667	-34.645	146.35	-9.665	-116.586
2.675	-5.642	-83.616	20.235	-104.532	-34.116	142.174	-9.632	-117.418
2.7	-5.685	-87.159	20.228	-107.495	-34.592	141.779	-9.688	-119.444
2.725	-5.745	-90.764	20.203	-110.824	-33.28	142.438	-9.622	-121.004
2.75	-5.833	-93.945	20.189	-113.75	-33.948	127.02	-9.628	-122.461
2.775	-5.884	-98.052	20.194	-116.741	-34.593	133.233	-9.613	-124.295
2.8	-5.967	-101.553	20.195	-120.023	-34.495	132.946	-9.589	-126.26
2.825	-6.132	-105.916	20.165	-123.26	-34.475	126.121	-9.7	-127.884
2.85	-6.241	-109.432	20.166	-126.361	-34.739	125.265	-9.716	-129.872
2.875	-6.374	-113.559	20.169	-129.812	-34.382	129.585	-9.779	-131.412
2.9	-6.562	-117.919	20.184	-133.016	-34.585	132.502	-9.808	-132.354
2.925	-6.802	-122.097	20.182	-136.512	-34.666	125.75	-9.823	-135.136
2.95	-7.031	-126.704	20.165	-139.862	-33.731	114.748	-9.916	-137.242
2.975	-7.323	-131.555	20.158	-143.53	-34.809	124.15	-10.078	-138.341
3	-7.555	-136.978	20.182	-147.098	-33.731	120.321	-10.191	-141.194
3.025	-7.913	-142.589	20.17	-150.821	-34.283	114.201	-10.251	-142.603
3.05	-8.25	-148.69	20.121	-154.77	-34.526	107.727	-10.338	-144.868
3.075	-8.746	-154.385	20.11	-158.605	-33.1	112.101	-10.516	-146.675
3.1	-9.193	-161.232	20.108	-162.499	-33.87	111.346	-10.678	-149.242
3.125	-9.688	-168.654	20.061	-166.557	-34.425	98.798	-10.809	-150.581
3.15	-10.225	-177.325	20.02	-170.783	-32.999	97.472	-11.004	-153.165
3.175	-10.79	173.228	19.977	-174.847	-33.573	101.292	-11.257	-154.56
3.2	-11.398	162.997	19.904	-179.219	-34.181	94.256	-11.478	-157.339
3.225	-11.771	151.715	19.808	176.37	-34.814	91.712	-11.696	-159.543
3.25	-12.11	138.509	19.696	171.886	-34.505	86.32	-12.026	-161.278
3.275	-12.32	124.256	19.619	167.538	-33.098	82.332	-12.324	-163.171
3.3	-12.412	110.587	19.472	162.858	-33.784	78.659	-12.623	-165.233
3.325	-12.023	96.873	19.297	158.4	-34.654	84.144	-12.978	-166.743
3.35	-11.611	82.796	19.126	153.644	-34.455	76.142	-13.253	-169.027
3.375	-10.963	70.314	18.917	148.924	-34.409	73.308	-13.593	-170.13
3.4	-10.237	58.874	18.706	144.377	-34.545	63.437	-14.008	-171.155
3.425	-9.53	48.639	18.475	139.763	-35.884	60.945	-14.222	-171.847
3.45	-8.682	39.168	18.219	135.151	-35.016	52.862	-14.582	-174.068
3.475	-8.06	30.546	17.911	130.493	-34.83	60.618	-14.995	-175.01
3.5	-7.364	22.862	17.612	126.144	-36.23	55.423	-15.293	-175.74
3.525	-6.752	15.833	17.256	121.588	-35.039	51.712	-15.444	-177.747
3.55	-6.173	9.307	16.928	117.322	-35.706	51.352	-15.868	-178.293
3.575	-5.658	3.267	16.576	113.07	-34.867	38.253	-16.118	-178.511
3.6	-5.288	-2.649	16.165	108.992	-35.221	43.43	-16.368	-179.222
3.625	-4.8	-7.759	15.801	105.029	-36.687	40.87	-16.756	-179.941
3.65	-4.411	-12.737	15.403	100.961	-37.649	25.2	-16.903	179.441
3.675	-4.038	-17.363	14.994	97.252	-37.7	34.743	-17.018	178.554
3.7	-3.809	-21.769	14.575	93.595	-36.938	33.498	-17.131	177.457
3.725	-3.471	-25.922	14.19	89.818	-37.937	19.353	-17.2	176.18
3.75	-3.247	-29.736	13.76	86.345	-37.231	28.84	-17.578	174.743
3.775	-3.012	-33.763	13.317	83.022	-39.263	15.134	-17.452	172.337
3.8	-2.785	-37.474	12.899	79.683	-38.897	33.794	-17.471	171.767
3.825	-2.615	-40.664	12.464	76.446	-41.024	15.376	-17.591	167.693
3.85	-2.443	-44.123	12.049	73.43	-39.219	19.324	-17.489	167.645
3.875	-2.322	-47.524	11.603	70.161	-41.192	26.479	-17.673	165.137
3.9	-2.134	-50.442	11.211	67.376	-40.394	11.364	-17.826	162.355
3.925	-2.048	-53.52	10.769	64.381	-40.358	4.594	-17.661	158.737
3.95	-1.953	-56.035	10.319	61.629	-42.441	-6.486	-17.861	156.987
3.975	-1.812	-58.643	9.911	58.859	-43.484	-9.249	-17.708	154.993
4	-1.786	-61.633	9.444	56.033	-42.259	-0.2	-17.712	152.135
4.025	-1.681	-64.149	9.078	53.401	-44.766	25.427	-17.411	149.404
4.05	-1.628	-66.435	8.63	50.964	-40.089	8.396	-17.487	145.541
4.075	-1.513	-69.005	8.26	48.115	-40.073	-9.958	-17.607	141.764
4.1	-1.417	-70.846	7.852	45.816	-43.043	3.506	-17.256	137.89
4.125	-1.33	-73.182	7.439	43.379	-44.855	-7.195	-17.228	134.879
4.15	-1.37	-75.454	7.014	41.068	-45.718	28.771	-17.343	131.889
4.175	-1.313	-77.547	6.605	38.76	-42.934	-2.653	-17.182	128.37
4.2	-1.235	-79.677	6.226	36.373	-41.768	-25.519	-17.113	125.56
4.225	-1.162	-81.644	5.812	34.122	-46.07	11.637	-16.897	123.229
4.25	-1.132	-83.597	5.41	31.996	-44.914	-13.724	-16.712	119.176
4.275	-1.088	-85.447	5.057	29.807	-45.668	-27.56	-16.566	117.445
4.3	-1.062	-87.872	4.63	27.339	-45.51	-16.776	-16.387	113.478
4.325	-1.013	-89.407	4.269	25.256	-41.436	-2.045	-16.333	110.112
4.35	-0.995	-91.352	3.873	23.236	-42.287	-18.805	-16.185	107.665
4.375	-0.971	-92.648	3.545	21.221	-44.525	-16.481	-16	103.259
4.4	-0.945	-94.244	3.131	19.348	-45.377	-12.804	-15.673	100.562
4.425	-0.956	-95.95	2.767	17.357	-44.992	10.491	-15.499	98.751
4.45	-0.898	-97.741	2.391	15.38	-45.048	-38.526	-15.18	97.029
4.475	-0.872	-99.468	2.038	13.283	-48.605	-17.842	-14.972	93.258
4.5	-0.851	-100.849	1.696	11.452	-45.266	-27.606	-14.854	91.383
4.525	-0.848	-102.598	1.298	9.44	-51.035	-34.019	-14.663	88.318
4.55	-0.854	-103.969	0.935	7.721	-56.253	26.318	-14.423	84.732
4.575	-0.783	-105.434	0.625	5.612	-47.982	-14.531	-14.279	83.568
4.6	-0.782	-107.151	0.247	4.037	-46.311	-16.139	-13.924	81.263
4.625	-0.781	-108.429	-0.092	1.969	-54.426	-63.72	-13.817	79.642
4.65	-0.749	-109.982	-0.425	0.291	-46.557	-44.563	-13.467	77.092
4.675	-0.766	-111.355	-0.781	-1.616	-48.988	-59.924	-13.262	74.901
4.7	-0.726	-112.77	-1.108	-3.37	-50.556	13.568	-13.168	72.226
4.725	-0.744	-114.009	-1.455	-5.068	-46.104	6.007	-12.893	70.898
4.75	-0.694	-115.273	-1.779	-6.874	-49.63	-36.473	-12.697	68.399
4.775	-0.661	-116.643	-2.158	-8.703	-47.876	10.318	-12.451	66.298
4.8	-0.682	-118.357	-2.49	-10.43	-45.896	-50.906	-12.281	64.255
4.825	-0.735	-119.58	-2.823	-12.02	-52.414	-38.62	-12.085	62.668
4.85	-0.671	-120.74	-3.154	-13.922	-49.735	-11.853	-11.917	60.254
4.875	-0.656	-121.936	-3.447	-15.185	-54.392	-49.874	-11.73	58.414
4.9	-0.659	-123.294	-3.816	-17.218	-50.125	-33.864	-11.566	57.41
4.925	-0.66	-124.35	-4.119	-18.556	-49.531	-40.277	-11.356	55.108
4.95	-0.668	-125.581	-4.428	-20.205	-56.386	8.648	-11.172	54.039
4.975	-0.627	-126.911	-4.753	-21.88	-49.68	28.779	-11.028	52.444
5	-0.598	-128.122	-5.087	-23.395	-50.488	-9.131	-10.87	50.081
5.025	-0.613	-129.276	-5.365	-24.946	-46.634	-32.053	-10.623	48.925
5.05	-0.635	-130.406	-5.704	-26.627	-48.01	-37.97	-10.454	47.331
5.075	-0.621	-131.682	-6.045	-27.967	-48.265	-55.311	-10.338	45.759
5.1	-0.604	-132.781	-6.327	-29.693	-54.518	-45.635	-10.175	44.247
5.125	-0.617	-133.809	-6.633	-31.275	-52.41	-6.216	-10.013	42.987
5.15	-0.594	-134.937	-6.943	-32.624	-55.909	-16.619	-9.813	41.4
5.175	-0.603	-136.05	-7.277	-34.194	-58.073	-53.34	-9.729	39.855
5.2	-0.581	-136.995	-7.549	-36.143	-56.122	-126.272	-9.637	37.988
5.225	-0.576	-138.183	-7.827	-37.418	-57.537	119.547	-9.529	37.284
5.25	-0.568	-139.243	-8.156	-38.728	-52.457	-7.465	-9.354	35.595
5.275	-0.576	-140.388	-8.392	-40.304	-52.151	-10.867	-9.221	34.186
5.3	-0.547	-141.296	-8.747	-41.697	-56.1	4.338	-9.126	32.691
5.325	-0.567	-142.449	-9.023	-43.188	-56.671	-97.132	-8.948	31.657
5.35	-0.56	-143.446	-9.347	-44.508	-55.469	-86.744	-8.806	30.111
5.375	-0.552	-144.28	-9.55	-46.155	-50.415	-65.825	-8.684	28.51
5.4	-0.529	-145.421	-9.896	-47.631	-54.274	-78.738	-8.487	27.111
5.425	-0.516	-146.505	-10.155	-48.93	-51.936	-22.113	-8.499	26.062
5.45	-0.529	-147.25	-10.499	-49.956	-50.561	-56.458	-8.33	24.277
5.475	-0.55	-148.353	-10.767	-51.735	-51.222	-29.956	-8.205	23.603
5.5	-0.509	-149.051	-10.974	-53.122	-59.192	-88.663	-8.044	22.031
5.525	-0.469	-150.43	-11.229	-54.454	-58.156	68.123	-7.996	21.194
5.55	-0.534	-151.085	-11.52	-55.203	-53.967	-75.948	-7.861	19.712
5.575	-0.519	-151.961	-11.8	-57.08	-51.247	-79.027	-7.79	18.022
5.6	-0.535	-153.111	-12.121	-58.785	-51.447	-14.138	-7.749	16.816
5.625	-0.513	-153.808	-12.323	-59.991	-72.556	78.715	-7.579	15.502
5.65	-0.493	-154.775	-12.549	-60.801	-75.375	-27.3	-7.429	15.25
5.675	-0.52	-155.964	-12.97	-62.793	-60.349	-57.23	-7.341	13.653
5.7	-0.498	-156.525	-13.128	-63.735	-49.317	-81.256	-7.257	12.452
5.725	-0.523	-157.601	-13.48	-65.559	-58.725	-56.585	-7.175	11.363
5.75	-0.49	-158.255	-13.685	-66.429	-48.881	-22.9	-7.017	10.099
5.775	-0.499	-159.312	-13.97	-68.264	-52.088	-15.748	-6.985	8.76
5.8	-0.45	-160.139	-14.297	-70.207	-55.437	21.144	-6.986	7.289
5.825	-0.492	-160.936	-14.486	-70.161	-57.868	153.944	-6.778	6.344
5.85	-0.492	-161.811	-14.765	-71.638	-58.224	68.616	-6.717	4.453
5.875	-0.449	-162.684	-15.045	-73.421	-47.515	-46.984	-6.617	3.746
5.9	-0.479	-163.478	-15.298	-73.924	-53.86	-107.773	-6.558	2.445
5.925	-0.477	-164.186	-15.416	-75.749	-58.969	104.869	-6.518	1.379
5.95	-0.454	-165.281	-15.914	-77.158	-51.803	-51.612	-6.426	0.419
5.975	-0.462	-165.955	-15.995	-77.573	-55.382	6.935	-6.3	-0.777
6	-0.473	-166.86	-16.246	-80.156	-54.111	-9.637	-6.293	-2.686
6.025	-0.444	-167.552	-16.516	-80.393	-53.459	-37.493	-6.123	-3.864
6.05	-0.449	-168.315	-16.804	-82.509	-68.257	-42.004	-6.051	-4.147
6.075	-0.4	-168.848	-16.953	-82.299	-60.209	-108.348	-6.022	-5.609
6.1	-0.449	-169.783	-17.268	-85.176	-52.711	-11.737	-5.992	-6.549
6.125	-0.467	-170.602	-17.322	-85.018	-46.591	-66.688	-5.787	-7.903
6.15	-0.468	-171.374	-17.705	-86.649	-54.481	67.818	-5.707	-8.7
6.175	-0.447	-172.164	-18.048	-89.53	-50.803	-13.807	-5.788	-10.385
6.2	-0.418	-173.009	-18.205	-88.58	-51.837	53.797	-5.64	-11.574
6.225	-0.464	-173.327	-18.259	-91.011	-58.892	-74.836	-5.147	-12.151
6.25	-0.477	-174.24	-18.517	-93.193	-53.934	129.622	-5.136	-12.751
6.275	-0.458	-174.974	-18.8	-92.614	-57.478	37.018	-5.042	-14.002
6.3	-0.453	-175.938	-19.154	-94.313	-58.733	2.23	-4.996	-14.51
6.325	-0.429	-176.861	-19.154	-94.956	-73.17	-7.474	-4.963	-15.863
6.35	-0.444	-177.339	-19.505	-96.267	-49.592	-108.656	-4.862	-17.025
6.375	-0.462	-178.311	-19.625	-98.113	-56.874	-43.46	-4.856	-17.538
6.4	-0.471	-179.01	-20.038	-98.819	-55.802	66.547	-4.748	-18.35
6.425	-0.431	179.858	-20.164	-98.588	-54.493	-63.526	-4.739	-19.543
6.45	-0.474	179.341	-20.315	-100.499	-56.43	93.962	-4.671	-20.021
6.475	-0.439	178.406	-20.685	-101.766	-51.949	6.032	-4.616	-21.058
6.5	-0.444	177.982	-20.929	-103.608	-51.277	-66.182	-4.583	-21.899
6.525	-0.437	177.141	-21.198	-103.47	-53.98	-101.947	-4.527	-22.818
6.55	-0.432	176.084	-21.306	-104.312	-55.158	-12.325	-4.511	-23.834
6.575	-0.435	175.25	-21.5	-106.542	-56.294	0.332	-4.444	-24.312
6.6	-0.438	174.586	-21.657	-106.981	-54.395	-118.301	-4.358	-25.409
6.625	-0.412	173.718	-22.147	-107.504	-53.958	-13.562	-4.329	-25.721
6.65	-0.398	173.068	-22.228	-109.54	-47.861	-27.174	-4.278	-26.6
6.675	-0.389	172.263	-22.521	-111.007	-57.798	-125.013	-4.263	-27.417
6.7	-0.395	171.185	-22.594	-112.201	-62.667	-10.282	-4.213	-27.961
6.725	-0.397	170.914	-22.71	-113.112	-57.98	-92.371	-4.205	-28.886
6.75	-0.4	169.98	-22.926	-114.886	-57.7	-92.563	-4.17	-29.585
6.775	-0.458	169.312	-23.109	-115.856	-69.736	-92.547	-4.138	-30.757
6.8	-0.404	168.413	-23.36	-115.173	-52.271	-129.539	-4.077	-31.125
6.825	-0.382	167.929	-23.466	-119.195	-44.552	-123.133	-4.016	-31.829
6.85	-0.441	167.003	-23.727	-120.048	-56.591	-159.538	-3.948	-32.621
6.875	-0.421	166.178	-24.009	-118.963	-51.282	-129.575	-3.989	-33.378
6.9	-0.432	165.462	-24.328	-117.691	-56.84	-119.873	-3.968	-34.261
6.925	-0.41	164.723	-24.261	-121.217	-49.898	-43.799	-3.896	-35.018
6.95	-0.387	164.152	-24.344	-121.707	-61.81	117.093	-3.839	-35.676
6.975	-0.389	163.448	-24.784	-122.795	-52.784	-133.629	-3.869	-35.824
7	-0.386	162.722	-24.953	-121.908	-58.155	-118.819	-3.789	-36.592
7.025	-0.38	161.976	-25.115	-125.63	-54.847	-107.355	-3.768	-37.496
7.05	-0.405	161.159	-25.625	-127.62	-53.136	139.288	-3.73	-37.862
7.075	-0.404	160.552	-25.334	-128.476	-53.712	-138.5	-3.704	-38.66
7.1	-0.379	159.934	-26.094	-128.367	-56.239	-106.999	-3.657	-39.742
7.125	-0.385	159.054	-26.011	-130.442	-55.801	-171.847	-3.659	-39.932
7.15	-0.379	158.334	-26.128	-131.775	-60.47	154.696	-3.639	-40.689
7.175	-0.403	157.455	-26.425	-130.693	-55.123	-93.811	-3.605	-41.28
7.2	-0.395	156.78	-26.645	-130.751	-64.192	171.023	-3.581	-41.679
7.225	-0.384	156.169	-26.935	-134.098	-47.939	-129.889	-3.534	-42.488
7.25	-0.397	155.318	-27.012	-134.107	-58.293	-122.955	-3.518	-43.454
7.275	-0.429	154.661	-27.028	-134.607	-52.977	-25.635	-3.495	-43.835
7.3	-0.435	153.992	-27.243	-133.71	-53.246	-77.466	-3.458	-44.618
7.325	-0.383	153.225	-27.721	-137.515	-51.456	-116.412	-3.453	-44.79
7.35	-0.392	152.564	-26.814	-139.305	-55.439	-135.221	-3.39	-45.614
