# GHz S RI R 50
! S-Parameters data
! Freq   reS11   imS11   reS12   imS12   reS13   imS13   reS14   imS14
!        reS21   imS21   reS22   imS22   reS23   imS23   reS24   imS24
!        reS31   imS31   reS32   imS32   reS33   imS33   reS34   imS34
!        reS41   imS41   reS42   imS42   reS43   imS43   reS44   imS44
!     
0.1000000000                     0.0019807122          -0.0071498764           0.0010995384           0.0047802386           0.9849877241          -0.1585659797           0.0135425560           0.0813810717
                                 0.0011191153           0.0050346884           0.0028809982          -0.0043743536           0.0135009682           0.0812719921           0.9851305591          -0.1592502581
                                 0.9852892561          -0.1586855782           0.0134924519           0.0812613033          -0.0002639591          -0.0080638075           0.0011736882           0.0049930778
                                 0.0135660607           0.0814028186           0.9855834223          -0.1586596939           0.0012793000           0.0045623424           0.0028984144          -0.0041420048
0.1050000000                     0.0020198222          -0.0074398029           0.0012573000           0.0050318233           0.9831591296          -0.1664977717           0.0149249751           0.0852977322
                                 0.0012459468           0.0052648709           0.0028356131          -0.0046423108           0.0148769168           0.0851324384           0.9833374130          -0.1671930707
                                 0.9834612500          -0.1666619452           0.0148891342           0.0851073296          -0.0001536493          -0.0086879701           0.0012927452           0.0052119323
                                 0.0149229403           0.0853083623           0.9835957367          -0.1671828481           0.0014640457           0.0047943804           0.0026883338          -0.0041997031
0.1100000000                     0.0020724216          -0.0077975202           0.0014241572           0.0052498256           0.9812085859          -0.1743547610           0.0163163869           0.0891455860
                                 0.0013878068           0.0055097335           0.0026861919          -0.0048951447           0.0162919170           0.0890134259           0.9814476077          -0.1751015331
                                 0.9815326009          -0.1744816522           0.0162562390           0.0889903950           0.0000785095          -0.0089676150           0.0014122038           0.0054441697
                                 0.0163392991           0.0891455879           0.9817840007          -0.1744235632           0.0015861434           0.0050459384           0.0024823102          -0.0043058182
0.1150000000                     0.0022118061          -0.0083867435           0.0015411458           0.0054869672           0.9792794263          -0.1823866134           0.0178099489           0.0930062865
                                 0.0015158637           0.0057449933           0.0026502672          -0.0048440009           0.0177710336           0.0928379058           0.9795189244          -0.1831168956
                                 0.9796391482          -0.1822794972           0.0177786615           0.0928059525           0.0004765445          -0.0088839354           0.0015143830           0.0056774192
                                 0.0177920262           0.0930221262           0.9796708486          -0.1833598577           0.0016922200           0.0053203651           0.0023985467          -0.0043778956
0.1200000000                     0.0024547444          -0.0088274714           0.0016981597           0.0057025358           0.9774848733          -0.1902440261           0.0193714093           0.0968231671
                                 0.0016674844           0.0059836664           0.0024391895          -0.0047206394           0.0193229157           0.0966888415           0.9776286152          -0.1909067844
                                 0.9777273231          -0.1901492002           0.0192708950           0.0966517538           0.0008891147          -0.0087817790           0.0016191237           0.0059293624
                                 0.0193864944           0.0968423927           0.9777710289          -0.1907064125           0.0017502653           0.0056135953           0.0022263311          -0.0044152032
0.1250000000                     0.0027135395          -0.0093248305           0.0018467476           0.0059417458           0.9754082172          -0.1981033673           0.0209693839           0.1006240236
                                 0.0018168079           0.0062348053           0.0024324819          -0.0047183693           0.0209271084           0.1004670116           0.9756578571          -0.1987559064
                                 0.9756163125          -0.1978317657           0.0208829913           0.1004229868           0.0010134299          -0.0086590878           0.0017556833           0.0061268562
                                 0.0209656797           0.1006195025           0.9756575782          -0.1985483871           0.0018592476           0.0058879306           0.0019877936          -0.0046701909
0.1300000000                     0.0024546577          -0.0097583475           0.0019783650           0.0061472383           0.9732708353          -0.2057578074           0.0226041832           0.1043626590
                                 0.0019817753           0.0064413412           0.0024857748          -0.0049009822           0.0225705748           0.1042216169           0.9735027163          -0.2065078159
                                 0.9735186081          -0.2056558581           0.0225271532           0.1041670105           0.0009118953          -0.0089400580           0.0019086941           0.0063392906
                                 0.0226463435           0.1044040910           0.9734347301          -0.2062755054           0.0019778653           0.0060939386           0.0018304919          -0.0047102724
0.1350000000                     0.0021221377          -0.0102407641           0.0022392708           0.0063512485           0.9710702126          -0.2134607248           0.0243636324           0.1081282390
                                 0.0022198689           0.0066490455           0.0026375381          -0.0055028280           0.0243002872           0.1079478387           0.9712547540          -0.2142665992
                                 0.9712667892          -0.2133434679           0.0242781617           0.1078861961           0.0004384336          -0.0096529982           0.0021416015           0.0064815315
                                 0.0243845902           0.1081390200           0.9712783053          -0.2139471910           0.0021069868           0.0062196003           0.0015878365          -0.0048699440
0.1400000000                     0.0015667078          -0.0108844943           0.0024856167           0.0065292956           0.9689912880          -0.2211215137           0.0261561307           0.1118325554
                                 0.0024672549           0.0068538770           0.0029405298          -0.0061471310           0.0260849921           0.1116562617           0.9691054134          -0.2220511547
                                 0.9691063911          -0.2210189776           0.0260345058           0.1115836801          -0.0001641419          -0.0105102271           0.0023914055           0.0066807893
                                 0.0261221401           0.1118438018           0.9691122503          -0.2217490725           0.0023087884           0.0063402096           0.0015440105          -0.0049687961
0.1450000000                     0.0009467957          -0.0113938151           0.0027347190           0.0067350117           0.9666974498          -0.2288166589           0.0279753323           0.1155098737
                                 0.0027595449           0.0070422890           0.0031500020          -0.0068172457           0.0279190717           0.1153476265           0.9668581280          -0.2297981010
                                 0.9668524844          -0.2287414224           0.0278917897           0.1152964523          -0.0008460139          -0.0114537569           0.0027024808           0.0068338642
                                 0.0279782990           0.1155363078           0.9668096658          -0.2293714224           0.0025142386           0.0064057681           0.0011972760          -0.0052642861
0.1500000000                     0.0005140595          -0.0119003601           0.0029565904           0.0069142079           0.9642881068          -0.2363345572           0.0298771170           0.1191543615
                                 0.0030040524           0.0072296332           0.0032647026          -0.0073058020           0.0298141417           0.1189572400           0.9643259039          -0.2373095429
                                 0.9645485411          -0.2364782338           0.0297707429           0.1189656547          -0.0014767299          -0.0121550789           0.0029864361           0.0069729108
                                 0.0298724521           0.1192124183           0.9643576689          -0.2369560397           0.0027035744           0.0065089131           0.0010596695          -0.0056461198
0.1550000000                     0.0003771338          -0.0121776025           0.0031528505           0.0071080607           0.9616216091          -0.2438814435           0.0317846702           0.1227739576
                                 0.0031907281           0.0074440877           0.0031635836          -0.0074332684           0.0317228074           0.1225617038           0.9616557755          -0.2446881397
                                 0.9618077470          -0.2439821726           0.0317305390           0.1225320892          -0.0019791299          -0.0125219643           0.0031706346           0.0071742306
                                 0.0318125423           0.1228064335           0.9616032702          -0.2444983711           0.0029099671           0.0066022432           0.0009345147          -0.0057861581
0.1600000000                     0.0003355400          -0.0124199933           0.0033220069           0.0072692324           0.9590833472          -0.2514953599           0.0338052938           0.1263509562
                                 0.0033843262           0.0076300337           0.0027491988          -0.0075515798           0.0337396494           0.1261446082           0.9589722982          -0.2522644653
                                 0.9592485936          -0.2515952999           0.0337141145           0.1261220247          -0.0024504547          -0.0126850782           0.0033603904           0.0073817784
                                 0.0338245630           0.1264082407           0.9590358302          -0.2521294806           0.0030679090           0.0067426952           0.0010018447          -0.0061219739
0.1650000000                     0.0003212962          -0.0125322542           0.0034681331           0.0074066147           0.9566507634          -0.2591788493           0.0358858088           0.1299107962
                                 0.0035218676           0.0078234285           0.0021997367          -0.0075782743           0.0358125372           0.1296880273           0.9564462321          -0.2601544535
                                 0.9567944107          -0.2592990100           0.0357299138           0.1297214028          -0.0030260219          -0.0127608395           0.0034590213           0.0076049931
                                 0.0359044441           0.1300053190           0.9566899142          -0.2595811423           0.0032709196           0.0067966646           0.0010910956          -0.0063974857
0.1700000000                     0.0003127743          -0.0126818379           0.0036220963           0.0075550596           0.9540928533          -0.2667159544           0.0380050856           0.1334446642
                                 0.0036823706           0.0079677632           0.0016354158          -0.0075625122           0.0379216457           0.1332214820           0.9539047581          -0.2676514511
                                 0.9541884898          -0.2668436891           0.0378476318           0.1332313801          -0.0034750369          -0.0126153616           0.0035942568           0.0077846423
                                 0.0380222458           0.1335310210           0.9540608543          -0.2672426438           0.0034369937           0.0069565200           0.0011168210          -0.0067203052
0.1750000000                     0.0002035719          -0.0126893891           0.0037996648           0.0077221269           0.9512935049          -0.2742935921           0.0401886120           0.1369747200
                                 0.0038329307           0.0081168196           0.0011635015          -0.0076137803           0.0400856450           0.1367532567           0.9511472286          -0.2751798881
                                 0.9514611462          -0.2744315107           0.0400184712           0.1366948768          -0.0040120075          -0.0127273581           0.0037102402           0.0079700587
                                 0.0402282673           0.1370583871           0.9513309365          -0.2747156636           0.0036606639           0.0070538050           0.0011528887          -0.0070681400
0.1800000000                    -0.0000263282          -0.0128328968           0.0039585694           0.0078636926           0.9482604771          -0.2815549083           0.0423776912           0.1404061791
                                 0.0039975091           0.0082561050           0.0006662966          -0.0076291658           0.0422840253           0.1401510796           0.9481181542          -0.2825389063
                                 0.9483516822          -0.2817474805           0.0422368764           0.1401406145          -0.0041972594          -0.0128643649           0.0038587133           0.0081387480
                                 0.0424182048           0.1405094706           0.9483853655          -0.2820525331           0.0038756828           0.0072057422           0.0009788007          -0.0071772257
0.1850000000                    -0.0004620307          -0.0129285003           0.0041159180           0.0079643051           0.9451649104          -0.2886648692           0.0446904064           0.1437805297
                                 0.0041725952           0.0083951311           0.0003205001          -0.0076968770           0.0445477679           0.1435550558           0.9449730029          -0.2897978103
                                 0.9452412798          -0.2888295040           0.0444784116           0.1435254740          -0.0042790594          -0.0132703868           0.0040303069           0.0083043403
                                 0.0447276637           0.1438858684           0.9452610056          -0.2893378618           0.0041299663           0.0074249203           0.0008712124          -0.0074138751
0.1900000000                    -0.0009212552          -0.0131390341           0.0043206249           0.0080976403           0.9421624997          -0.2959580131           0.0470284936           0.1471768572
                                 0.0043856406           0.0085286942           0.0001016189          -0.0078148293           0.0468767028           0.1469561469           0.9420196238          -0.2970742454
                                 0.9422492929          -0.2962309439           0.0468324776           0.1469255612          -0.0040889901          -0.0136799091           0.0041992623           0.0084511115
                                 0.0470457552           0.1472655413           0.9423080976          -0.2968985558           0.0043998015           0.0076619713           0.0005761854          -0.0075317589
0.1950000000                    -0.0014420983          -0.0133997599           0.0045813132           0.0082181724           0.9393367368          -0.3033151366           0.0494179152           0.1505450761
                                 0.0046145914           0.0086211963          -0.0001048220          -0.0081319299           0.0493067769           0.1502966179           0.9390943512          -0.3045469041
                                 0.9394184507          -0.3036319866           0.0492730587           0.1503192005          -0.0038829043          -0.0141221664           0.0044356252           0.0085984622
                                 0.0494284034           0.1506301328           0.9394177082          -0.3042609887           0.0046536675           0.0079702050           0.0003671025          -0.0077335637
0.2000000000                    -0.0018483169          -0.0136843802           0.0048204466           0.0083138817           0.9364030905          -0.3106671174           0.0519300811           0.1538678158
                                 0.0048496532           0.0087527593          -0.0002160762          -0.0082305135           0.0517678887           0.1536732706           0.9361066679          -0.3119700589
                                 0.9364882987          -0.3109464968           0.0517324296           0.1536535344          -0.0035443702          -0.0144763872           0.0046440903           0.0087325192
                                 0.0519293963           0.1539722687           0.9365873797          -0.3117594162           0.0049329916           0.0081977766           0.0001107078          -0.0079077628
0.2050000000                    -0.0024303228          -0.0139893182           0.0050404441           0.0084506571           0.9334664993          -0.3178549744           0.0544354588           0.1572015155
                                 0.0050741156           0.0088292641          -0.0002853969          -0.0083728806           0.0542905601           0.1569559038           0.9332598834          -0.3192474801
                                 0.9336254090          -0.3181505665           0.0542641461           0.1569527295          -0.0033126753          -0.0149088938           0.0048410581           0.0088604397
                                 0.0544219778           0.1572796946           0.9335943333          -0.3190013815           0.0052220319           0.0084527355          -0.0002194359          -0.0079088115
0.2100000000                    -0.0027759965          -0.0143575056           0.0052887821           0.0085065300           0.9303559819          -0.3249917180           0.0569985005           0.1604009645
                                 0.0053103888           0.0089385585          -0.0004266969          -0.0085391884           0.0568528870           0.1601942262           0.9301813849          -0.3262917280
                                 0.9304578569          -0.3252192251           0.0568275787           0.1601705426          -0.0030726203          -0.0152840609           0.0051715567           0.0089957203
                                 0.0569943649           0.1604817392           0.9303704780          -0.3262739553           0.0054442352           0.0086710688          -0.0003991502          -0.0083107402
0.2150000000                    -0.0032277979          -0.0145960888           0.0055280933           0.0086243036           0.9267846018          -0.3317671830           0.0595821709           0.1635565964
                                 0.0055501561           0.0090542901          -0.0005804976          -0.0085672500           0.0594038595           0.1633305086           0.9267401539          -0.3331816411
